
T755C 000:365 SEGGER J-Link V4.96d Log File (0007ms, 0280ms total)
T755C 000:365 DLL Compiled: Jan 29 2015 11:45:37 (0007ms, 0280ms total)
T755C 000:365 Logging started @ 2018-12-03 21:18 (0007ms, 0280ms total)
T755C 000:372 JLINK_SetWarnOutHandler(...) (0000ms, 0280ms total)
T755C 000:372 JLINK_OpenEx(...)
Firmware: J-Link V9 compiled Mar 29 2018 17:46:13
Hardware: V9.40
S/N: 59400638
Feature(s): RDI, GDB, FlashDL, FlashBP, JFlash  returns O.K. (0268ms, 0548ms total)
T755C 000:640 JLINK_SetErrorOutHandler(...) (0000ms, 0548ms total)
T755C 000:640 JLINK_ExecCommand("ProjectFile = "D:\Ñ§Ï°¹¤×÷\TDT\Motor_Driver\²âÊÔ\project\JLinkSettings.ini"", ...)Device "STM32F405RG" selected.  returns 0x00 (0001ms, 0549ms total)
T755C 000:641 JLINK_ExecCommand("Device = STM32F405RGTx", ...)Device "STM32F405RG" selected.  returns 0x00 (0001ms, 0550ms total)
T755C 000:642 JLINK_ExecCommand("DisableConnectionTimeout", ...)  returns 0x01 (0000ms, 0550ms total)
T755C 000:642 JLINK_GetHardwareVersion()  returns 0x16F30 (0000ms, 0550ms total)
T755C 000:642 JLINK_GetDLLVersion()  returns 49604 (0000ms, 0550ms total)
T755C 000:642 JLINK_GetFirmwareString(...) (0000ms, 0550ms total)
T755C 000:643 JLINK_GetDLLVersion()  returns 49604 (0000ms, 0550ms total)
T755C 000:643 JLINK_GetCompileDateTime() (0000ms, 0550ms total)
T755C 000:644 JLINK_GetFirmwareString(...) (0000ms, 0550ms total)
T755C 000:646 JLINK_GetHardwareVersion()  returns 0x16F30 (0000ms, 0550ms total)
T755C 000:649 JLINK_TIF_Select(JLINKARM_TIF_SWD)  returns 0x00 (0001ms, 0551ms total)
T755C 000:650 JLINK_SetSpeed(1000) (0000ms, 0551ms total)
T755C 000:651 JLINK_GetId() >0x108 TIF>Found SWD-DP with ID 0x2BA01477 >0x0D TIF> >0x28 TIF> >0x0D TIF> >0x28 TIF> >0x0D TIF> >0x21 TIF> >0x0D TIF> >0x28 TIF> >0x0D TIF> >0x28 TIF> >0x0D TIF> >0x28 TIF> >0x0D TIF> >0x21 TIF> >0x0D TIF> >0x21 TIF> >0x0D TIF> >0x28 TIF> >0x0D TIF> >0x21 TIF> >0x0D TIF> >0x21 TIF> >0x0D TIF> >0x28 TIF> >0x0D TIF> >0x21 TIF> >0x0D TIF> >0x21 TIF> >0x108 TIF>Found SWD-DP with ID 0x2BA01477 >0x0D TIF> >0x21 TIF> >0x0D TIF> >0x28 TIF> >0x0D TIF> >0x28 TIF> >0x0D TIF> >0x21 TIF>
 >0x0D TIF> >0x28 TIF> >0x0D TIF> >0x21 TIF> >0x0D TIF> >0x21 TIF> >0x0D TIF> >0x21 TIF> >0x0D TIF> >0x21 TIF> >0x0D TIF> >0x28 TIF> >0x0D TIF> >0x28 TIF> >0x0D TIF> >0x21 TIF> >0x0D TIF> >0x28 TIF> >0x0D TIF> >0x28 TIF> >0x0D TIF> >0x28 TIF> >0x0D TIF> >0x21 TIF> >0x0D TIF> >0x21 TIF> >0x0D TIF> >0x28 TIF> >0x0D TIF> >0x21 TIF> >0x0D TIF> >0x21 TIF>Found Cortex-M4 r0p1, Little endian. -- CPU_WriteMem(4 bytes @ 0xE0002000) -- CPU_ReadMem(4 bytes @ 0xE000EDF0) -- CPU_ReadMem(4 bytes @ 0xE0002000)
FPUnit: 6 code (BP) slots and 2 literal slots -- CPU_ReadMem(4 bytes @ 0xE000EDFC) -- CPU_ReadMem(4 bytes @ 0xE0001000) -- CPU_WriteMem(4 bytes @ 0xE0001000) -- CPU_ReadMem(4 bytes @ 0xE000ED88) -- CPU_WriteMem(4 bytes @ 0xE000ED88) -- CPU_ReadMem(4 bytes @ 0xE000ED88) -- CPU_WriteMem(4 bytes @ 0xE000ED88) -- CPU_ReadMem(4 bytes @ 0xE00FF010)TPIU fitted. -- CPU_ReadMem(4 bytes @ 0xE00FF014)ETM fitted. -- CPU_ReadMem(4 bytes @ 0xE00FF018) >0x0D TIF> >0x21 TIF>  returns 0x2BA01477 (0026ms, 0577ms total)
T755C 000:677 JLINK_GetDLLVersion()  returns 49604 (0000ms, 0577ms total)
T755C 000:677 JLINK_CORE_GetFound()  returns 0xE0000FF (0000ms, 0577ms total)
T755C 000:677 JLINK_GetDebugInfo(0x100) -- Value=0xE00FF003  returns 0x00 (0000ms, 0577ms total)
T755C 000:679 JLINK_ReadMem (0xE00FF000, 0x0020 Bytes, ...) -- CPU is running -- CPU_ReadMem(32 bytes @ 0xE00FF000) - Data: 03 F0 F0 FF 03 20 F0 FF 03 30 F0 FF 03 10 F0 FF ...  returns 0x00 (0001ms, 0578ms total)
T755C 000:680 JLINK_ReadMem (0xE000EFF0, 0x0010 Bytes, ...) -- CPU is running -- CPU_ReadMem(16 bytes @ 0xE000EFF0) - Data: 0D 00 00 00 E0 00 00 00 05 00 00 00 B1 00 00 00  returns 0x00 (0001ms, 0579ms total)
T755C 000:681 JLINK_ReadMem (0xE000EFD0, 0x0020 Bytes, ...) -- CPU is running -- CPU_ReadMem(32 bytes @ 0xE000EFD0) - Data: 04 00 00 00 00 00 00 00 00 00 00 00 00 00 00 00 ...  returns 0x00 (0001ms, 0580ms total)
T755C 000:682 JLINK_ReadMem (0xE0001FF0, 0x0010 Bytes, ...) -- CPU is running -- CPU_ReadMem(16 bytes @ 0xE0001FF0) - Data: 0D 00 00 00 E0 00 00 00 05 00 00 00 B1 00 00 00  returns 0x00 (0001ms, 0581ms total)
T755C 000:683 JLINK_ReadMem (0xE0001FD0, 0x0020 Bytes, ...) -- CPU is running -- CPU_ReadMem(32 bytes @ 0xE0001FD0) - Data: 04 00 00 00 00 00 00 00 00 00 00 00 00 00 00 00 ...  returns 0x00 (0001ms, 0582ms total)
T755C 000:684 JLINK_ReadMem (0xE0002FF0, 0x0010 Bytes, ...) -- CPU is running -- CPU_ReadMem(16 bytes @ 0xE0002FF0) - Data: 0D 00 00 00 E0 00 00 00 05 00 00 00 B1 00 00 00  returns 0x00 (0001ms, 0583ms total)
T755C 000:685 JLINK_ReadMem (0xE0002FD0, 0x0020 Bytes, ...) -- CPU is running -- CPU_ReadMem(32 bytes @ 0xE0002FD0) - Data: 04 00 00 00 00 00 00 00 00 00 00 00 00 00 00 00 ...  returns 0x00 (0001ms, 0584ms total)
T755C 000:686 JLINK_ReadMem (0xE0000FF0, 0x0010 Bytes, ...) -- CPU is running -- CPU_ReadMem(16 bytes @ 0xE0000FF0) - Data: 0D 00 00 00 E0 00 00 00 05 00 00 00 B1 00 00 00  returns 0x00 (0001ms, 0585ms total)
T755C 000:687 JLINK_ReadMem (0xE0000FD0, 0x0020 Bytes, ...) -- CPU is running -- CPU_ReadMem(32 bytes @ 0xE0000FD0) - Data: 04 00 00 00 00 00 00 00 00 00 00 00 00 00 00 00 ...  returns 0x00 (0001ms, 0586ms total)
T755C 000:688 JLINK_ReadMem (0xE0040FF0, 0x0010 Bytes, ...) -- CPU is running -- CPU_ReadMem(16 bytes @ 0xE0040FF0) - Data: 0D 00 00 00 90 00 00 00 05 00 00 00 B1 00 00 00  returns 0x00 (0000ms, 0586ms total)
T755C 000:688 JLINK_ReadMem (0xE0040FD0, 0x0020 Bytes, ...) -- CPU is running -- CPU_ReadMem(32 bytes @ 0xE0040FD0) - Data: 04 00 00 00 00 00 00 00 00 00 00 00 00 00 00 00 ...  returns 0x00 (0001ms, 0587ms total)
T755C 000:689 JLINK_ReadMem (0xE0041FF0, 0x0010 Bytes, ...) -- CPU is running -- CPU_ReadMem(16 bytes @ 0xE0041FF0) - Data: 0D 00 00 00 90 00 00 00 05 00 00 00 B1 00 00 00  returns 0x00 (0001ms, 0588ms total)
T755C 000:690 JLINK_ReadMem (0xE0041FD0, 0x0020 Bytes, ...) -- CPU is running -- CPU_ReadMem(32 bytes @ 0xE0041FD0) - Data: 04 00 00 00 00 00 00 00 00 00 00 00 00 00 00 00 ...  returns 0x00 (0001ms, 0589ms total)
T755C 000:691 JLINK_ReadMemU32(0xE000EF40, 0x0001 Items, ...) -- CPU is running -- CPU_ReadMem(4 bytes @ 0xE000EF40) - Data: 21 00 11 10  returns 0x01 (0001ms, 0590ms total)
T755C 000:692 JLINK_ReadMemU32(0xE000EF44, 0x0001 Items, ...) -- CPU is running -- CPU_ReadMem(4 bytes @ 0xE000EF44) - Data: 11 00 00 11  returns 0x01 (0000ms, 0590ms total)
T755C 000:692 JLINK_ReadMemU32(0xE000ED00, 0x0001 Items, ...) -- CPU is running -- CPU_ReadMem(4 bytes @ 0xE000ED00) - Data: 41 C2 0F 41  returns 0x01 (0001ms, 0591ms total)
T755C 000:693 JLINK_SetResetType(JLINKARM_RESET_TYPE_NORMAL)  returns JLINKARM_RESET_TYPE_NORMAL (0000ms, 0591ms total)
T755C 000:693 JLINK_Reset() -- CPU is running -- CPU_WriteMem(4 bytes @ 0xE000EDF0) -- CPU is running -- CPU_WriteMem(4 bytes @ 0xE000EDFC) >0x35 TIF> -- CPU is running -- CPU_WriteMem(4 bytes @ 0xE000ED0C) -- CPU is running -- CPU_ReadMem(4 bytes @ 0xE000EDF0) -- CPU is running -- CPU_ReadMem(4 bytes @ 0xE000EDF0) -- CPU is running -- CPU_WriteMem(4 bytes @ 0xE000EDF0) -- CPU is running -- CPU_WriteMem(4 bytes @ 0xE000EDFC) -- CPU is running -- CPU_ReadMem(4 bytes @ 0xE000EDF0)
 -- CPU_WriteMem(4 bytes @ 0xE0002000) -- CPU_ReadMem(4 bytes @ 0xE000EDFC) -- CPU_ReadMem(4 bytes @ 0xE0001000) (0022ms, 0613ms total)
T755C 000:715 JLINK_ReadReg(R15 (PC))  returns 0x1FFF3DA0 (0000ms, 0613ms total)
T755C 000:715 JLINK_ReadReg(XPSR)  returns 0x01000000 (0000ms, 0613ms total)
T755C 000:716 JLINK_Halt()  returns 0x00 (0000ms, 0614ms total)
T755C 000:716 JLINK_IsHalted()  returns TRUE (0000ms, 0614ms total)
T755C 000:716 JLINK_ReadMemU32(0xE000EDF0, 0x0001 Items, ...) -- CPU_ReadMem(4 bytes @ 0xE000EDF0) - Data: 03 00 03 00  returns 0x01 (0000ms, 0614ms total)
T755C 000:716 JLINK_WriteU32(0xE000EDF0, 0xA05F0003) -- CPU_WriteMem(4 bytes @ 0xE000EDF0)  returns 0x00 (0001ms, 0615ms total)
T755C 000:717 JLINK_WriteU32(0xE000EDFC, 0x01000000) -- CPU_WriteMem(4 bytes @ 0xE000EDFC)  returns 0x00 (0000ms, 0615ms total)
T755C 000:719 JLINK_GetHWStatus(...)  returns 0x00 (0000ms, 0615ms total)
T755C 000:719 JLINK_GetNumBPUnits(Type = 0xFFFFFF00)  returns 0x06 (0001ms, 0616ms total)
T755C 000:720 JLINK_GetNumBPUnits(Type = 0xF0)  returns 0x2000 (0000ms, 0616ms total)
T755C 000:720 JLINK_GetNumWPUnits()  returns 0x04 (0000ms, 0616ms total)
T755C 000:720 JLINK_GetSpeed()  returns 0x3E8 (0000ms, 0616ms total)
T755C 000:720 JLINK_ReadMemU32(0xE000E004, 0x0001 Items, ...) -- CPU_ReadMem(4 bytes @ 0xE000E004) - Data: 02 00 00 00  returns 0x01 (0001ms, 0617ms total)
T755C 000:721 JLINK_ReadMemU32(0xE000E004, 0x0001 Items, ...) -- CPU_ReadMem(4 bytes @ 0xE000E004) - Data: 02 00 00 00  returns 0x01 (0000ms, 0617ms total)
T755C 000:721 JLINK_WriteMem(0xE0001000, 0x001C Bytes, ...) - Data: 01 00 00 00 00 00 00 00 00 00 00 00 00 00 00 00 ... -- CPU_WriteMem(28 bytes @ 0xE0001000)  returns 0x1C (0002ms, 0619ms total)
T755C 000:723 JLINK_ReadMem (0xE0001000, 0x001C Bytes, ...) -- CPU_ReadMem(28 bytes @ 0xE0001000) - Data: 01 00 00 40 00 00 00 00 00 00 00 00 00 00 00 00 ...  returns 0x00 (0001ms, 0620ms total)
T755C 000:724 JLINK_ReadReg(R15 (PC))  returns 0x1FFF3DA0 (0000ms, 0620ms total)
T755C 000:724 JLINK_ReadReg(XPSR)  returns 0x01000000 (0000ms, 0620ms total)
T755C 000:752 JLINK_ReadMem (0x08000000, 0x1000 Bytes, ...) -- CPU_ReadMem(4096 bytes @ 0x08000000) -- Updating C cache (4096 bytes @ 0x08000000) -- Read from C cache (4096 bytes @ 0x08000000) - Data: F0 4E 00 20 01 45 00 08 B9 01 00 08 BB 01 00 08 ...  returns 0x00 (0055ms, 0675ms total)
T755C 000:808 JLINK_ReadMem (0x08001000, 0x1000 Bytes, ...) -- CPU_ReadMem(4096 bytes @ 0x08001000) -- Updating C cache (4096 bytes @ 0x08001000) -- Read from C cache (4096 bytes @ 0x08001000) - Data: 00 44 00 40 40 0F 00 20 74 00 00 20 70 00 00 20 ...  returns 0x00 (0055ms, 0730ms total)
T755C 000:864 JLINK_ReadMem (0x08002000, 0x1000 Bytes, ...) -- CPU_ReadMem(4096 bytes @ 0x08002000) -- Updating C cache (4096 bytes @ 0x08002000) -- Read from C cache (4096 bytes @ 0x08002000) - Data: 51 EC 1B 0B 05 F0 67 F9 41 EC 19 0B 05 F0 92 FA ...  returns 0x00 (0055ms, 0785ms total)
T755C 000:920 JLINK_ReadMem (0x08003000, 0x1000 Bytes, ...) -- CPU_ReadMem(4096 bytes @ 0x08003000) -- Updating C cache (4096 bytes @ 0x08003000) -- Read from C cache (4096 bytes @ 0x08003000) - Data: C0 48 00 20 00 B5 97 B0 01 21 55 48 02 F0 0A FC ...  returns 0x00 (0055ms, 0840ms total)
T755C 000:976 JLINK_ReadMem (0x08004000, 0x1000 Bytes, ...) -- CPU_ReadMem(4096 bytes @ 0x08004000) -- Updating C cache (4096 bytes @ 0x08004000) -- Read from C cache (4096 bytes @ 0x08004000) - Data: 24 68 DF F8 50 C0 CC F8 34 40 0E 4C 64 68 CC F8 ...  returns 0x00 (0055ms, 0895ms total)
T755C 001:032 JLINK_ReadMem (0x08005000, 0x1000 Bytes, ...) -- CPU_ReadMem(4096 bytes @ 0x08005000) -- Updating C cache (4096 bytes @ 0x08005000) -- Read from C cache (4096 bytes @ 0x08005000) - Data: 05 D1 4F F0 74 61 A9 4A 08 3A 11 60 23 E0 A7 49 ...  returns 0x00 (0055ms, 0950ms total)
T755C 001:088 JLINK_ReadMem (0x08006000, 0x1000 Bytes, ...) -- CPU_ReadMem(4096 bytes @ 0x08006000) -- Updating C cache (4096 bytes @ 0x08006000) -- Read from C cache (4096 bytes @ 0x08006000) - Data: 0B D0 B0 F1 80 4F 08 D0 A4 4B 98 42 05 D0 A4 4B ...  returns 0x00 (0054ms, 1004ms total)
T755C 001:142 JLINK_ReadMem (0x08007000, 0x1000 Bytes, ...) -- CPU_ReadMem(4096 bytes @ 0x08007000) -- Updating C cache (4096 bytes @ 0x08007000) -- Read from C cache (4096 bytes @ 0x08007000) - Data: 50 49 08 60 4C 48 08 30 00 68 20 F0 03 00 4A 49 ...  returns 0x00 (0055ms, 1059ms total)
T755C 001:198 JLINK_ReadMem (0x08008000, 0x1000 Bytes, ...) -- CPU_ReadMem(4096 bytes @ 0x08008000) -- Updating C cache (4096 bytes @ 0x08008000) -- Read from C cache (4096 bytes @ 0x08008000) - Data: AD 0B 3E 97 9D 0F 3E F5 8C 13 3E 39 7B 17 3E 56 ...  returns 0x00 (0055ms, 1114ms total)
T755C 001:254 JLINK_ReadMem (0x08009000, 0x1000 Bytes, ...) -- CPU_ReadMem(4096 bytes @ 0x08009000) -- Updating C cache (4096 bytes @ 0x08009000) -- Read from C cache (4096 bytes @ 0x08009000) - Data: 8C 7B 3F A7 A1 7B 3F 98 B6 7B 3F 57 CB 7B 3F E4 ...  returns 0x00 (0055ms, 1169ms total)
T755C 001:310 JLINK_ReadMem (0x0800A000, 0x1000 Bytes, ...) -- CPU_ReadMem(4096 bytes @ 0x0800A000) -- Updating C cache (4096 bytes @ 0x0800A000) -- Read from C cache (4096 bytes @ 0x0800A000) - Data: EC 83 84 BE D7 60 85 BE A7 3D 86 BE 5C 1A 87 BE ...  returns 0x00 (0055ms, 1224ms total)
T755C 001:366 JLINK_ReadMem (0x0800B000, 0x099C Bytes, ...) -- CPU_ReadMem(2496 bytes @ 0x0800B000) -- Updating C cache (2496 bytes @ 0x0800B000) -- Read from C cache (2460 bytes @ 0x0800B000) - Data: 1E BF 20 1C 1E BF 20 1C 1F BF F3 58 09 1D 20 1C ...  returns 0x00 (0033ms, 1257ms total)
T755C 001:455 JLINK_SetResetType(JLINKARM_RESET_TYPE_NORMAL)  returns JLINKARM_RESET_TYPE_NORMAL (0000ms, 1257ms total)
T755C 001:455 JLINK_Reset() -- CPU_WriteMem(4 bytes @ 0xE000EDF0) -- CPU_WriteMem(4 bytes @ 0xE000EDFC) >0x35 TIF> -- CPU_WriteMem(4 bytes @ 0xE000ED0C) -- CPU_ReadMem(4 bytes @ 0xE000EDF0) -- CPU_ReadMem(4 bytes @ 0xE000EDF0) -- CPU_WriteMem(4 bytes @ 0xE000EDF0) -- CPU_WriteMem(4 bytes @ 0xE000EDFC) -- CPU is running -- CPU_ReadMem(4 bytes @ 0xE000EDF0) -- CPU_WriteMem(4 bytes @ 0xE0002000) -- CPU_ReadMem(4 bytes @ 0xE000EDFC) -- CPU_ReadMem(4 bytes @ 0xE0001000) (0022ms, 1279ms total)
T755C 001:477 JLINK_ReadReg(R15 (PC))  returns 0x1FFF3DA0 (0000ms, 1279ms total)
T755C 001:477 JLINK_ReadReg(XPSR)  returns 0x01000000 (0000ms, 1279ms total)
T755C 001:477 JLINK_ReadMem (0x1FFF3DA0, 0x003C Bytes, ...) -- CPU_ReadMem(128 bytes @ 0x1FFF3D80) -- Updating C cache (128 bytes @ 0x1FFF3D80) -- Read from C cache (60 bytes @ 0x1FFF3DA0) - Data: C0 46 C0 46 C0 46 C0 46 FF F7 DA FF FD F7 64 B8 ...  returns 0x00 (0003ms, 1282ms total)
T755C 003:893 JLINK_ReadMem (0x20000068, 0x0008 Bytes, ...) -- CPU_ReadMem(64 bytes @ 0x20000040) -- Updating C cache (64 bytes @ 0x20000040) -- Read from C cache (8 bytes @ 0x20000068) - Data: 32 00 38 00 4B 00 67 00  returns 0x00 (0001ms, 1283ms total)
T755C 004:107 JLINK_ReadMem (0x20000028, 0x0004 Bytes, ...) -- CPU_ReadMem(64 bytes @ 0x20000000) -- Updating C cache (64 bytes @ 0x20000000) -- Read from C cache (4 bytes @ 0x20000028) - Data: 78 00 30 00  returns 0x00 (0001ms, 1284ms total)
T755C 004:122 JLINK_ReadMem (0x2000002C, 0x0004 Bytes, ...) -- Read from C cache (4 bytes @ 0x2000002C) - Data: 38 00 30 00  returns 0x00 (0000ms, 1284ms total)
T755C 004:162 JLINK_ReadMem (0x20000018, 0x0004 Bytes, ...) -- Read from C cache (4 bytes @ 0x20000018) - Data: 6C 00 61 00  returns 0x00 (0000ms, 1284ms total)
T755C 004:186 JLINK_ReadMem (0x2000001C, 0x0004 Bytes, ...) -- Read from C cache (4 bytes @ 0x2000001C) - Data: 73 00 68 00  returns 0x00 (0000ms, 1284ms total)
T755C 004:243 JLINK_ReadMem (0x20000020, 0x0004 Bytes, ...) -- Read from C cache (4 bytes @ 0x20000020) - Data: 20 00 20 00  returns 0x00 (0000ms, 1284ms total)
T755C 004:257 JLINK_ReadMem (0x20000024, 0x0004 Bytes, ...) -- Read from C cache (4 bytes @ 0x20000024) - Data: 2F 00 30 00  returns 0x00 (0000ms, 1284ms total)
T755C 004:442 JLINK_ReadMem (0x2000003C, 0x0001 Bytes, ...) -- Read from C cache (1 bytes @ 0x2000003C) - Data: 30  returns 0x00 (0000ms, 1284ms total)
T755C 004:712 JLINK_ReadMem (0x20000031, 0x0001 Bytes, ...) -- Read from C cache (1 bytes @ 0x20000031) - Data: 00  returns 0x00 (0000ms, 1284ms total)
T755C 004:731 JLINK_ReadMem (0x20000032, 0x0001 Bytes, ...) -- Read from C cache (1 bytes @ 0x20000032) - Data: 30  returns 0x00 (0000ms, 1284ms total)
T755C 004:805 JLINK_ReadMem (0x20000054, 0x0004 Bytes, ...) -- Read from C cache (4 bytes @ 0x20000054) - Data: 30 00 36 00  returns 0x00 (0000ms, 1284ms total)
T755C 004:910 JLINK_ReadMem (0x2000056C, 0x0002 Bytes, ...) -- CPU_ReadMem(64 bytes @ 0x20000540) -- Updating C cache (64 bytes @ 0x20000540) -- Read from C cache (2 bytes @ 0x2000056C) - Data: 00 00  returns 0x00 (0002ms, 1286ms total)
T755C 004:929 JLINK_ReadMem (0x20000570, 0x0002 Bytes, ...) -- Read from C cache (2 bytes @ 0x20000570) - Data: 00 00  returns 0x00 (0000ms, 1286ms total)
T755C 005:018 JLINK_ReadMem (0x20000588, 0x0004 Bytes, ...) -- CPU_ReadMem(64 bytes @ 0x20000580) -- Updating C cache (64 bytes @ 0x20000580) -- Read from C cache (4 bytes @ 0x20000588) - Data: 00 00 00 00  returns 0x00 (0001ms, 1287ms total)
T755C 005:035 JLINK_ReadMem (0x20000560, 0x0004 Bytes, ...) -- Read from C cache (4 bytes @ 0x20000560) - Data: 00 00 00 00  returns 0x00 (0000ms, 1287ms total)
T755C 005:051 JLINK_ReadMem (0x2000055C, 0x0004 Bytes, ...) -- Read from C cache (4 bytes @ 0x2000055C) - Data: 00 00 00 00  returns 0x00 (0000ms, 1287ms total)
T755C 005:066 JLINK_ReadMem (0x2000056E, 0x0002 Bytes, ...) -- Read from C cache (2 bytes @ 0x2000056E) - Data: 00 00  returns 0x00 (0000ms, 1287ms total)
T755C 005:201 JLINK_ReadMem (0x20000568, 0x0004 Bytes, ...) -- Read from C cache (4 bytes @ 0x20000568) - Data: 00 00 00 00  returns 0x00 (0000ms, 1287ms total)
T755C 005:217 JLINK_ReadMem (0x20000558, 0x0004 Bytes, ...) -- Read from C cache (4 bytes @ 0x20000558) - Data: 00 00 00 00  returns 0x00 (0000ms, 1287ms total)
T755C 005:623 JLINK_ReadMem (0x2000000A, 0x0002 Bytes, ...) -- Read from C cache (2 bytes @ 0x2000000A) - Data: 65 00  returns 0x00 (0000ms, 1287ms total)
T755C 005:640 JLINK_ReadMem (0x2000000C, 0x0002 Bytes, ...) -- Read from C cache (2 bytes @ 0x2000000C) - Data: 72 00  returns 0x00 (0000ms, 1287ms total)
T755C 005:674 JLINK_ReadMem (0x20000010, 0x0004 Bytes, ...) -- Read from C cache (4 bytes @ 0x20000010) - Data: 61 00 6C 00  returns 0x00 (0000ms, 1287ms total)
T5AC0 005:858 JLINK_SetBPEx(Addr = 0x0800019C, Type = 0xFFFFFFF2)  returns 0x00000001 (0000ms, 1287ms total)
T5AC0 005:858 JLINK_Go() -- CPU_WriteMem(4 bytes @ 0xE0002000) -- CPU_WriteMem(4 bytes @ 0xE0002008) -- CPU_WriteMem(4 bytes @ 0xE000200C) -- CPU_WriteMem(4 bytes @ 0xE0002010) -- CPU_WriteMem(4 bytes @ 0xE0002014) -- CPU_WriteMem(4 bytes @ 0xE0002018) -- CPU_WriteMem(4 bytes @ 0xE000201C) -- CPU_WriteMem(4 bytes @ 0xE0001004) (0005ms, 1292ms total)
T5AC0 005:965 JLINK_IsHalted()  returns FALSE (0000ms, 1292ms total)
T5AC0 006:066 JLINK_Halt()  returns 0x00 (0006ms, 1298ms total)
T5AC0 006:072 JLINK_IsHalted()  returns TRUE (0000ms, 1298ms total)
T5AC0 006:072 JLINK_IsHalted()  returns TRUE (0000ms, 1298ms total)
T5AC0 006:072 JLINK_IsHalted()  returns TRUE (0000ms, 1298ms total)
T5AC0 006:072 JLINK_ReadReg(R15 (PC))  returns 0x1FFF37B6 (0000ms, 1298ms total)
T5AC0 006:072 JLINK_ReadReg(XPSR)  returns 0x81000000 (0000ms, 1298ms total)
T5AC0 006:072 JLINK_ClrBPEx(BPHandle = 0x00000001)  returns 0x00 (0000ms, 1298ms total)
T5AC0 006:072 JLINK_ReadMemU32(0xE000ED30, 0x0001 Items, ...) -- CPU_ReadMem(4 bytes @ 0xE000ED30) - Data: 01 00 00 00  returns 0x01 (0001ms, 1299ms total)
T5AC0 006:073 JLINK_ReadMemU32(0xE0001028, 0x0001 Items, ...) -- CPU_ReadMem(4 bytes @ 0xE0001028) - Data: 00 00 00 00  returns 0x01 (0000ms, 1299ms total)
T5AC0 006:073 JLINK_ReadMemU32(0xE0001038, 0x0001 Items, ...) -- CPU_ReadMem(4 bytes @ 0xE0001038) - Data: 00 02 00 00  returns 0x01 (0001ms, 1300ms total)
T5AC0 006:074 JLINK_ReadMemU32(0xE0001048, 0x0001 Items, ...) -- CPU_ReadMem(4 bytes @ 0xE0001048) - Data: 00 00 00 00  returns 0x01 (0001ms, 1301ms total)
T5AC0 006:075 JLINK_ReadMemU32(0xE0001058, 0x0001 Items, ...) -- CPU_ReadMem(4 bytes @ 0xE0001058) - Data: 00 00 00 00  returns 0x01 (0000ms, 1301ms total)
T5AC0 006:075 JLINK_ReadReg(R0)  returns 0x00000000 (0000ms, 1301ms total)
T5AC0 006:075 JLINK_ReadReg(R1)  returns 0x00000000 (0000ms, 1301ms total)
T5AC0 006:075 JLINK_ReadReg(R2)  returns 0x20000360 (0000ms, 1301ms total)
T5AC0 006:075 JLINK_ReadReg(R3)  returns 0x50000B00 (0000ms, 1301ms total)
T5AC0 006:075 JLINK_ReadReg(R4)  returns 0x40023820 (0000ms, 1301ms total)
T5AC0 006:075 JLINK_ReadReg(R5)  returns 0x40020000 (0000ms, 1301ms total)
T5AC0 006:075 JLINK_ReadReg(R6)  returns 0x200001CC (0000ms, 1301ms total)
T5AC0 006:075 JLINK_ReadReg(R7)  returns 0x40020400 (0001ms, 1302ms total)
T5AC0 006:076 JLINK_ReadReg(R8)  returns 0x00001CE8 (0000ms, 1302ms total)
T5AC0 006:076 JLINK_ReadReg(R9)  returns 0x00000064 (0000ms, 1302ms total)
T5AC0 006:076 JLINK_ReadReg(R10)  returns 0xE000E010 (0000ms, 1302ms total)
T5AC0 006:076 JLINK_ReadReg(R11)  returns 0x40020800 (0000ms, 1302ms total)
T5AC0 006:076 JLINK_ReadReg(R12)  returns 0x00000000 (0000ms, 1302ms total)
T5AC0 006:076 JLINK_ReadReg(R13 (SP))  returns 0x20001D50 (0000ms, 1302ms total)
T5AC0 006:076 JLINK_ReadReg(R14)  returns 0x1FFF14E1 (0000ms, 1302ms total)
T5AC0 006:076 JLINK_ReadReg(R15 (PC))  returns 0x1FFF37B6 (0000ms, 1302ms total)
T5AC0 006:076 JLINK_ReadReg(XPSR)  returns 0x81000000 (0000ms, 1302ms total)
T5AC0 006:076 JLINK_ReadReg(MSP)  returns 0x20001D50 (0000ms, 1302ms total)
T5AC0 006:076 JLINK_ReadReg(PSP)  returns 0x00000000 (0000ms, 1302ms total)
T5AC0 006:076 JLINK_ReadReg(CFBP)  returns 0x00000000 (0000ms, 1302ms total)
T5AC0 006:076 JLINK_ReadReg(FPSCR)  returns 0x00000000 (0012ms, 1314ms total)
T5AC0 006:088 JLINK_ReadReg(FPS0)  returns 0x00000000 (0000ms, 1314ms total)
T5AC0 006:088 JLINK_ReadReg(FPS1)  returns 0x00000000 (0000ms, 1314ms total)
T5AC0 006:088 JLINK_ReadReg(FPS2)  returns 0x00000000 (0000ms, 1314ms total)
T5AC0 006:088 JLINK_ReadReg(FPS3)  returns 0x00000000 (0000ms, 1314ms total)
T5AC0 006:088 JLINK_ReadReg(FPS4)  returns 0x00000000 (0000ms, 1314ms total)
T5AC0 006:088 JLINK_ReadReg(FPS5)  returns 0x00000000 (0000ms, 1314ms total)
T5AC0 006:088 JLINK_ReadReg(FPS6)  returns 0x00000000 (0000ms, 1314ms total)
T5AC0 006:088 JLINK_ReadReg(FPS7)  returns 0x00000000 (0000ms, 1314ms total)
T5AC0 006:088 JLINK_ReadReg(FPS8)  returns 0x00000000 (0000ms, 1314ms total)
T5AC0 006:088 JLINK_ReadReg(FPS9)  returns 0x00000000 (0000ms, 1314ms total)
T5AC0 006:088 JLINK_ReadReg(FPS10)  returns 0x00000000 (0000ms, 1314ms total)
T5AC0 006:088 JLINK_ReadReg(FPS11)  returns 0x00000000 (0000ms, 1314ms total)
T5AC0 006:088 JLINK_ReadReg(FPS12)  returns 0x00000000 (0000ms, 1314ms total)
T5AC0 006:088 JLINK_ReadReg(FPS13)  returns 0x00000000 (0000ms, 1314ms total)
T5AC0 006:088 JLINK_ReadReg(FPS14)  returns 0x00000000 (0000ms, 1314ms total)
T5AC0 006:088 JLINK_ReadReg(FPS15)  returns 0x00000000 (0000ms, 1314ms total)
T5AC0 006:088 JLINK_ReadReg(FPS16)  returns 0x00000000 (0000ms, 1314ms total)
T5AC0 006:088 JLINK_ReadReg(FPS17)  returns 0x00000000 (0000ms, 1314ms total)
T5AC0 006:088 JLINK_ReadReg(FPS18)  returns 0x00000000 (0000ms, 1314ms total)
T5AC0 006:088 JLINK_ReadReg(FPS19)  returns 0x00000000 (0000ms, 1314ms total)
T5AC0 006:088 JLINK_ReadReg(FPS20)  returns 0x00000000 (0000ms, 1314ms total)
T5AC0 006:088 JLINK_ReadReg(FPS21)  returns 0x00000000 (0000ms, 1314ms total)
T5AC0 006:088 JLINK_ReadReg(FPS22)  returns 0x00000000 (0000ms, 1314ms total)
T5AC0 006:088 JLINK_ReadReg(FPS23)  returns 0x00000000 (0000ms, 1314ms total)
T5AC0 006:088 JLINK_ReadReg(FPS24)  returns 0x00000000 (0000ms, 1314ms total)
T5AC0 006:088 JLINK_ReadReg(FPS25)  returns 0x00000000 (0000ms, 1314ms total)
T5AC0 006:088 JLINK_ReadReg(FPS26)  returns 0x00000000 (0000ms, 1314ms total)
T5AC0 006:088 JLINK_ReadReg(FPS27)  returns 0x00000000 (0000ms, 1314ms total)
T5AC0 006:088 JLINK_ReadReg(FPS28)  returns 0x00000000 (0001ms, 1315ms total)
T5AC0 006:089 JLINK_ReadReg(FPS29)  returns 0x00000000 (0000ms, 1315ms total)
T5AC0 006:089 JLINK_ReadReg(FPS30)  returns 0x00000000 (0000ms, 1315ms total)
T5AC0 006:089 JLINK_ReadReg(FPS31)  returns 0x00000000 (0000ms, 1315ms total)
T755C 006:099 JLINK_ReadMem (0x20000068, 0x0008 Bytes, ...) -- CPU_ReadMem(64 bytes @ 0x20000040) -- Updating C cache (64 bytes @ 0x20000040) -- Read from C cache (8 bytes @ 0x20000068) - Data: 32 00 38 00 4B 00 67 00  returns 0x00 (0001ms, 1316ms total)
T755C 006:115 JLINK_ReadMem (0x20000028, 0x0004 Bytes, ...) -- CPU_ReadMem(64 bytes @ 0x20000000) -- Updating C cache (64 bytes @ 0x20000000) -- Read from C cache (4 bytes @ 0x20000028) - Data: 78 00 30 00  returns 0x00 (0001ms, 1317ms total)
T755C 006:116 JLINK_ReadMem (0x2000002C, 0x0004 Bytes, ...) -- Read from C cache (4 bytes @ 0x2000002C) - Data: 38 00 30 00  returns 0x00 (0000ms, 1317ms total)
T755C 006:116 JLINK_ReadMem (0x20000018, 0x0004 Bytes, ...) -- Read from C cache (4 bytes @ 0x20000018) - Data: 6C 00 61 00  returns 0x00 (0001ms, 1318ms total)
T755C 006:117 JLINK_ReadMem (0x2000001C, 0x0004 Bytes, ...) -- Read from C cache (4 bytes @ 0x2000001C) - Data: 73 00 68 00  returns 0x00 (0000ms, 1318ms total)
T755C 006:117 JLINK_ReadMem (0x20000020, 0x0004 Bytes, ...) -- Read from C cache (4 bytes @ 0x20000020) - Data: 20 00 20 00  returns 0x00 (0000ms, 1318ms total)
T755C 006:117 JLINK_ReadMem (0x20000024, 0x0004 Bytes, ...) -- Read from C cache (4 bytes @ 0x20000024) - Data: 2F 00 30 00  returns 0x00 (0000ms, 1318ms total)
